
T4684 000:288 SEGGER J-Link V5.12b Log File (0002ms, 0271ms total)
T4684 000:288 DLL Compiled: Apr 15 2016 14:54:46 (0002ms, 0271ms total)
T4684 000:288 Logging started @ 2017-02-09 10:00 (0002ms, 0271ms total)
T4684 000:290 JLINK_SetWarnOutHandler(...) (0000ms, 0271ms total)
T4684 000:290 JLINK_OpenEx(...)
Firmware: J-Link ARM V8 compiled Jan 31 2018 18:34:52
Hardware: V8.00
S/N: 20080643
Feature(s): RDI,FlashDL,FlashBP,JFlash,GDBFull  returns O.K. (0268ms, 0539ms total)
T4684 000:558 JLINK_SetErrorOutHandler(...) (0000ms, 0539ms total)
T4684 000:558 JLINK_ExecCommand("ProjectFile = "E:\Easepal\项目\在线自助支付操作系统\M590E\程序\Online_Payment\Ke02_NeoWay_Gprs_v0.1\Pro\JLinkSettings.ini"", ...)Device "ARM7" selected.  returns 0x00 (0008ms, 0547ms total)
T4684 000:577 JLINK_ExecCommand("Device = MKE02Z64xxx4", ...)Device "MKE02Z64XXX4" selected.  returns 0x00 (0011ms, 0558ms total)
T4684 000:588 JLINK_ExecCommand("DisableConnectionTimeout", ...)  returns 0x01 (0000ms, 0558ms total)
T4684 000:588 JLINK_GetHardwareVersion()  returns 0x13880 (0000ms, 0558ms total)
T4684 000:588 JLINK_GetDLLVersion()  returns 51202 (0000ms, 0558ms total)
T4684 000:588 JLINK_GetFirmwareString(...) (0000ms, 0558ms total)
T4684 000:607 JLINK_GetDLLVersion()  returns 51202 (0000ms, 0558ms total)
T4684 000:607 JLINK_GetCompileDateTime() (0000ms, 0558ms total)
T4684 000:614 JLINK_GetFirmwareString(...) (0000ms, 0558ms total)
T4684 000:620 JLINK_GetHardwareVersion()  returns 0x13880 (0000ms, 0558ms total)
T4684 000:650 JLINK_TIF_Select(JLINKARM_TIF_SWD)  returns 0x00 (0002ms, 0560ms total)
T4684 000:652 JLINK_SetSpeed(10000) (0000ms, 0560ms total)
T4684 000:652 JLINK_GetId() >0x108 TIF>Found SWD-DP with ID 0x0BC11477 >0x0D TIF> >0x28 TIF> >0x0D TIF> >0x28 TIF> >0x0D TIF> >0x28 TIF> >0x0D TIF> >0x28 TIF> >0x0D TIF> >0x21 TIF> >0x0D TIF> >0x28 TIF> >0x0D TIF> >0x21 TIF> >0x0D TIF> >0x21 TIF> >0x0D TIF> >0x21 TIF> >0x0D TIF> >0x21 TIF> >0x0D TIF> >0x21 TIF> >0x0D TIF> >0x21 TIF> >0x0D TIF> >0x21 TIF> >0x0D TIF> >0x21 TIF> >0x0D TIF> >0x21 TIF> >0x0D TIF> >0x21 TIF> >0x0D TIF> >0x21 TIF> >0x0D TIF> >0x21 TIF> >0x0D TIF> >0x21 TIF> >0x0D TIF>
 >0x21 TIF> >0x0D TIF> >0x21 TIF> >0x0D TIF> >0x21 TIF> >0x0D TIF> >0x21 TIF> >0x0D TIF> >0x21 TIF> >0x0D TIF> >0x21 TIF> >0x0D TIF> >0x21 TIF> >0x0D TIF> >0x21 TIF> >0x0D TIF> >0x21 TIF> >0x0D TIF> >0x21 TIF> >0x0D TIF> >0x21 TIF> >0x0D TIF> >0x21 TIF> >0x0D TIF> >0x21 TIF> >0x0D TIF> >0x21 TIF> >0x0D TIF> >0x21 TIF> >0x0D TIF> >0x21 TIF> >0x0D TIF> >0x21 TIF> >0x0D TIF> >0x21 TIF> >0x0D TIF> >0x21 TIF> >0x0D TIF> >0x21 TIF> >0x0D TIF> >0x21 TIF> >0x0D TIF> >0x21 TIF> >0x0D TIF> >0x21 TIF> >0x0D TIF>
 >0x21 TIF> >0x0D TIF> >0x21 TIF> >0x0D TIF> >0x21 TIF> >0x0D TIF> >0x21 TIF> >0x0D TIF> >0x21 TIF> >0x0D TIF> >0x21 TIF> >0x0D TIF> >0x21 TIF> >0x0D TIF> >0x21 TIF> >0x0D TIF> >0x21 TIF> >0x0D TIF> >0x21 TIF> >0x0D TIF> >0x21 TIF> >0x0D TIF> >0x21 TIF> >0x0D TIF> >0x21 TIF> >0x0D TIF> >0x21 TIF> >0x0D TIF> >0x21 TIF> >0x0D TIF> >0x21 TIF> >0x0D TIF> >0x21 TIF> >0x0D TIF> >0x21 TIF> >0x0D TIF> >0x21 TIF> >0x0D TIF> >0x21 TIF> >0x0D TIF> >0x21 TIF> >0x0D TIF> >0x21 TIF> >0x0D TIF> >0x21 TIF> >0x0D TIF>
 >0x21 TIF> >0x0D TIF> >0x28 TIF> >0x0D TIF> >0x28 TIF> >0x0D TIF> >0x28 TIF> >0x0D TIF> >0x21 TIF> >0x0D TIF> >0x21 TIF> >0x108 TIF>Found SWD-DP with ID 0x0BC11477 >0x0D TIF> >0x28 TIF> >0x0D TIF> >0x28 TIF> >0x0D TIF> >0x28 TIF> >0x0D TIF> >0x28 TIF> >0x0D TIF> >0x21 TIF> >0x0D TIF> >0x28 TIF> >0x0D TIF> >0x28 TIF> >0x0D TIF> >0x21 TIF> >0x0D TIF> >0x21 TIF> >0x0D TIF> >0x21 TIF> >0x0D TIF> >0x28 TIF> >0x0D TIF> >0x28 TIF> >0x0D TIF> >0x28 TIF> >0x0D TIF> >0x21 TIF> >0x0D TIF> >0x21 TIF> >0x0D TIF>
 >0x28 TIF> >0x0D TIF> >0x21 TIF> >0x0D TIF> >0x21 TIF>Found Cortex-M0 r0p0, Little endian. >0x0D TIF> >0x28 TIF> -- CPU_ReadMem(4 bytes @ 0xE000EDF0) -- CPU_WriteMem(4 bytes @ 0xE000EDF0) -- CPU_ReadMem(4 bytes @ 0xE0002000)FPUnit: 2 code (BP) slots and 0 literal slots -- CPU_ReadMem(4 bytes @ 0xE000EDFC) -- CPU_WriteMem(4 bytes @ 0xE000EDFC) -- CPU_ReadMem(4 bytes @ 0xE0001000) -- CPU_WriteMem(4 bytes @ 0xE0001000)CoreSight components:ROMTbl 0 @ F0002000 -- CPU_ReadMem(16 bytes @ 0xF0002000)
 -- CPU_ReadMem(16 bytes @ 0xE00FFFF0) -- CPU_ReadMem(16 bytes @ 0xE00FFFE0)ROMTbl 0 [0]: F00FD000, CID: B105100D, PID: 000BB4C0 ROM TableROMTbl 1 @ E00FF000 -- CPU_ReadMem(16 bytes @ 0xE00FF000) -- CPU_ReadMem(16 bytes @ 0xE000EFF0) -- CPU_ReadMem(16 bytes @ 0xE000EFE0)ROMTbl 1 [0]: FFF0F000, CID: B105E00D, PID: 000BB008 SCS -- CPU_ReadMem(16 bytes @ 0xE0001FF0) -- CPU_ReadMem(16 bytes @ 0xE0001FE0)ROMTbl 1 [1]: FFF02000, CID: B105E00D, PID: 000BB00A DWT -- CPU_ReadMem(16 bytes @ 0xE0002FF0)
 -- CPU_ReadMem(16 bytes @ 0xE0002FE0)ROMTbl 1 [2]: FFF03000, CID: B105E00D, PID: 000BB00B FPB -- CPU_ReadMem(1 bytes @ 0x40052000) >0x0D TIF> >0x21 TIF>  returns 0x0BC11477 (0157ms, 0717ms total)
T4684 000:809 JLINK_GetDeviceFamily()  returns 6 (0000ms, 0717ms total)
T4684 000:814 JLINK_ReadMem (0xE00FFFF0, 0x0010 Bytes, ...) -- CPU_ReadMem(16 bytes @ 0xE00FFFF0) - Data: 0D 00 00 00 10 00 00 00 05 00 00 00 B1 00 00 00  returns 0x00 (0001ms, 0718ms total)
T4684 000:815 JLINK_ReadMem (0xE00FFFD0, 0x0020 Bytes, ...) -- CPU_ReadMem(32 bytes @ 0xE00FFFD0) - Data: 04 00 00 00 00 00 00 00 00 00 00 00 00 00 00 00 ...  returns 0x00 (0001ms, 0719ms total)
T4684 000:816 JLINK_ReadMem (0xE00FF000, 0x0018 Bytes, ...) -- CPU_ReadMem(24 bytes @ 0xE00FF000) - Data: 03 F0 F0 FF 03 20 F0 FF 03 30 F0 FF 00 00 00 00 ...  returns 0x00 (0000ms, 0719ms total)
T4684 000:816 JLINK_ReadMemU32(0xE000ED00, 0x0001 Items, ...) -- CPU_ReadMem(4 bytes @ 0xE000ED00) - Data: 00 C6 0C 41  returns 0x01 (0001ms, 0720ms total)
T4684 000:817 JLINK_SetResetType(JLINKARM_RESET_TYPE_NORMAL)  returns JLINKARM_RESET_TYPE_NORMAL (0000ms, 0720ms total)
T4684 000:817 JLINK_Reset() -- CPU_ReadMem(1 bytes @ 0x40052000) -- CPU_WriteMem(1 bytes @ 0x40052004) -- CPU_WriteMem(1 bytes @ 0x40052005) -- CPU_WriteMem(1 bytes @ 0x40052006) -- CPU_WriteMem(1 bytes @ 0x40052007) -- CPU_WriteMem(1 bytes @ 0x40052001) -- CPU_WriteMem(1 bytes @ 0x40052000) -- CPU_ReadMem(1 bytes @ 0x40052000) -- CPU_WriteMem(4 bytes @ 0xE0002000) -- CPU_ReadMem(4 bytes @ 0xE000EDFC) -- CPU_WriteMem(4 bytes @ 0xE000EDFC) -- CPU_ReadMem(4 bytes @ 0xE0001000)
 -- CPU_WriteMem(4 bytes @ 0xE0001000) (0018ms, 0738ms total)
T4684 000:835 JLINK_Halt()  returns 0x00 (0000ms, 0738ms total)
T4684 000:835 JLINK_IsHalted()  returns TRUE (0000ms, 0738ms total)
T4684 000:835 JLINK_ReadMemU32(0xE000EDF0, 0x0001 Items, ...) -- CPU_ReadMem(4 bytes @ 0xE000EDF0) - Data: 03 00 03 00  returns 0x01 (0001ms, 0739ms total)
T4684 000:836 JLINK_WriteU32(0xE000EDF0, 0xA05F0003) -- CPU_WriteMem(4 bytes @ 0xE000EDF0)  returns 0x00 (0001ms, 0740ms total)
T4684 000:837 JLINK_WriteU32(0xE000EDFC, 0x01000000) -- CPU_WriteMem(4 bytes @ 0xE000EDFC)  returns 0x00 (0000ms, 0740ms total)
T4684 000:856 JLINK_GetHWStatus(...)  returns 0x00 (0001ms, 0741ms total)
T4684 000:873 JLINK_GetNumBPUnits(Type = 0xFFFFFF00)  returns 0x02 (0000ms, 0741ms total)
T4684 000:873 JLINK_GetNumBPUnits(Type = 0xF0)  returns 0x2000 (0000ms, 0741ms total)
T4684 000:873 JLINK_GetNumWPUnits()  returns 0x02 (0000ms, 0741ms total)
T4684 000:891 JLINK_GetSpeed()  returns 0xFA0 (0000ms, 0741ms total)
T4684 000:901 JLINK_ReadMemU32(0xE000E004, 0x0001 Items, ...) -- CPU_ReadMem(4 bytes @ 0xE000E004) - Data: 00 00 00 00  returns 0x01 (0001ms, 0742ms total)
T4684 000:902 JLINK_Halt()  returns 0x00 (0000ms, 0742ms total)
T4684 000:902 JLINK_IsHalted()  returns TRUE (0000ms, 0742ms total)
T4684 000:905 JLINK_WriteMem(0x1FFFFC00, 0x01AC Bytes, ...) - Data: 00 BE 0A E0 0D 78 2D 06 68 40 08 24 40 00 00 D3 ... -- CPU_WriteMem(428 bytes @ 0x1FFFFC00)  returns 0x1AC (0004ms, 0746ms total)
T4684 000:909 JLINK_WriteReg(R0, 0x00000000)  returns 0x00 (0000ms, 0746ms total)
T4684 000:909 JLINK_WriteReg(R1, 0x02625A00)  returns 0x00 (0000ms, 0746ms total)
T4684 000:909 JLINK_WriteReg(R2, 0x00000001)  returns 0x00 (0000ms, 0746ms total)
T4684 000:909 JLINK_WriteReg(R3, 0x00000000)  returns 0x00 (0000ms, 0746ms total)
T4684 000:909 JLINK_WriteReg(R4, 0x00000000)  returns 0x00 (0000ms, 0746ms total)
T4684 000:909 JLINK_WriteReg(R5, 0x00000000)  returns 0x00 (0000ms, 0746ms total)
T4684 000:909 JLINK_WriteReg(R6, 0x00000000)  returns 0x00 (0000ms, 0746ms total)
T4684 000:909 JLINK_WriteReg(R7, 0x00000000)  returns 0x00 (0000ms, 0746ms total)
T4684 000:909 JLINK_WriteReg(R8, 0x00000000)  returns 0x00 (0000ms, 0746ms total)
T4684 000:909 JLINK_WriteReg(R9, 0x1FFFFDA8)  returns 0x00 (0000ms, 0746ms total)
T4684 000:909 JLINK_WriteReg(R10, 0x00000000)  returns 0x00 (0000ms, 0746ms total)
T4684 000:909 JLINK_WriteReg(R11, 0x00000000)  returns 0x00 (0000ms, 0746ms total)
T4684 000:909 JLINK_WriteReg(R12, 0x00000000)  returns 0x00 (0000ms, 0746ms total)
T4684 000:909 JLINK_WriteReg(R13 (SP), 0x20000C00)  returns 0x00 (0000ms, 0746ms total)
T4684 000:909 JLINK_WriteReg(R14, 0x1FFFFC01)  returns 0x00 (0000ms, 0746ms total)
T4684 000:909 JLINK_WriteReg(R15 (PC), 0x1FFFFC38)  returns 0x00 (0000ms, 0746ms total)
T4684 000:909 JLINK_WriteReg(XPSR, 0x01000000)  returns 0x00 (0000ms, 0746ms total)
T4684 000:909 JLINK_WriteReg(MSP, 0x20000C00)  returns 0x00 (0000ms, 0746ms total)
T4684 000:909 JLINK_WriteReg(PSP, 0x20000C00)  returns 0x00 (0000ms, 0746ms total)
T4684 000:909 JLINK_WriteReg(CFBP, 0x00000000)  returns 0x00 (0000ms, 0746ms total)
T4684 000:909 JLINK_SetBPEx(Addr = 0x1FFFFC00, Type = 0xFFFFFFF2)  returns 0x00000001 (0000ms, 0746ms total)
T4684 000:909 JLINK_Go() -- CPU_WriteMem(4 bytes @ 0xE0002000) -- CPU_ReadMem(4 bytes @ 0xE0001000) -- CPU_WriteMem(4 bytes @ 0xE0001000) -- CPU_WriteMem(4 bytes @ 0xE0002008) -- CPU_WriteMem(4 bytes @ 0xE000200C) -- CPU_WriteMem(4 bytes @ 0xE0001004) (0006ms, 0752ms total)
T4684 000:915 JLINK_IsHalted()  returns TRUE (0003ms, 0755ms total)
T4684 000:918 JLINK_ReadReg(R15 (PC))  returns 0x1FFFFC00 (0000ms, 0752ms total)
T4684 000:918 JLINK_ClrBPEx(BPHandle = 0x00000001)  returns 0x00 (0000ms, 0752ms total)
T4684 000:918 JLINK_ReadReg(R0)  returns 0x00000000 (0000ms, 0752ms total)
T4684 000:918 JLINK_WriteReg(R0, 0x00000000)  returns 0x00 (0000ms, 0752ms total)
T4684 000:918 JLINK_WriteReg(R1, 0x00000200)  returns 0x00 (0000ms, 0752ms total)
T4684 000:918 JLINK_WriteReg(R2, 0x000000FF)  returns 0x00 (0000ms, 0752ms total)
T4684 000:918 JLINK_WriteReg(R3, 0x00000000)  returns 0x00 (0000ms, 0752ms total)
T4684 000:918 JLINK_WriteReg(R4, 0x00000000)  returns 0x00 (0000ms, 0752ms total)
T4684 000:918 JLINK_WriteReg(R5, 0x00000000)  returns 0x00 (0000ms, 0752ms total)
T4684 000:918 JLINK_WriteReg(R6, 0x00000000)  returns 0x00 (0000ms, 0752ms total)
T4684 000:918 JLINK_WriteReg(R7, 0x00000000)  returns 0x00 (0000ms, 0752ms total)
T4684 000:918 JLINK_WriteReg(R8, 0x00000000)  returns 0x00 (0000ms, 0752ms total)
T4684 000:918 JLINK_WriteReg(R9, 0x1FFFFDA8)  returns 0x00 (0000ms, 0752ms total)
T4684 000:918 JLINK_WriteReg(R10, 0x00000000)  returns 0x00 (0000ms, 0752ms total)
T4684 000:918 JLINK_WriteReg(R11, 0x00000000)  returns 0x00 (0000ms, 0752ms total)
T4684 000:919 JLINK_WriteReg(R12, 0x00000000)  returns 0x00 (0000ms, 0753ms total)
T4684 000:919 JLINK_WriteReg(R13 (SP), 0x20000C00)  returns 0x00 (0000ms, 0753ms total)
T4684 000:919 JLINK_WriteReg(R14, 0x1FFFFC01)  returns 0x00 (0000ms, 0753ms total)
T4684 000:919 JLINK_WriteReg(R15 (PC), 0x1FFFFC20)  returns 0x00 (0000ms, 0753ms total)
T4684 000:919 JLINK_WriteReg(XPSR, 0x01000000)  returns 0x00 (0000ms, 0753ms total)
T4684 000:919 JLINK_WriteReg(MSP, 0x20000C00)  returns 0x00 (0000ms, 0753ms total)
T4684 000:919 JLINK_WriteReg(PSP, 0x20000C00)  returns 0x00 (0000ms, 0753ms total)
T4684 000:919 JLINK_WriteReg(CFBP, 0x00000000)  returns 0x00 (0000ms, 0753ms total)
T4684 000:919 JLINK_SetBPEx(Addr = 0x1FFFFC00, Type = 0xFFFFFFF2)  returns 0x00000002 (0000ms, 0753ms total)
T4684 000:919 JLINK_Go() -- CPU_WriteMem(4 bytes @ 0xE0002000) -- CPU_ReadMem(4 bytes @ 0xE0001000) -- CPU_WriteMem(4 bytes @ 0xE0001000) (0003ms, 0756ms total)
T4684 000:922 JLINK_IsHalted()  returns TRUE (0003ms, 0759ms total)
T4684 000:925 JLINK_ReadReg(R15 (PC))  returns 0x1FFFFC00 (0000ms, 0756ms total)
T4684 000:925 JLINK_ClrBPEx(BPHandle = 0x00000002)  returns 0x00 (0000ms, 0756ms total)
T4684 000:925 JLINK_ReadReg(R0)  returns 0x00000001 (0000ms, 0756ms total)
T4684 000:925 JLINK_WriteReg(R0, 0x00000000)  returns 0x00 (0000ms, 0756ms total)
T4684 000:925 JLINK_WriteReg(R1, 0x00000200)  returns 0x00 (0000ms, 0756ms total)
T4684 000:925 JLINK_WriteReg(R2, 0x000000FF)  returns 0x00 (0000ms, 0756ms total)
T4684 000:925 JLINK_WriteReg(R3, 0x00000000)  returns 0x00 (0000ms, 0756ms total)
T4684 000:925 JLINK_WriteReg(R4, 0x00000000)  returns 0x00 (0000ms, 0756ms total)
T4684 000:925 JLINK_WriteReg(R5, 0x00000000)  returns 0x00 (0000ms, 0756ms total)
T4684 000:925 JLINK_WriteReg(R6, 0x00000000)  returns 0x00 (0000ms, 0756ms total)
T4684 000:925 JLINK_WriteReg(R7, 0x00000000)  returns 0x00 (0000ms, 0756ms total)
T4684 000:925 JLINK_WriteReg(R8, 0x00000000)  returns 0x00 (0000ms, 0756ms total)
T4684 000:925 JLINK_WriteReg(R9, 0x1FFFFDA8)  returns 0x00 (0000ms, 0756ms total)
T4684 000:925 JLINK_WriteReg(R10, 0x00000000)  returns 0x00 (0000ms, 0756ms total)
T4684 000:925 JLINK_WriteReg(R11, 0x00000000)  returns 0x00 (0000ms, 0756ms total)
T4684 000:925 JLINK_WriteReg(R12, 0x00000000)  returns 0x00 (0000ms, 0756ms total)
T4684 000:925 JLINK_WriteReg(R13 (SP), 0x20000C00)  returns 0x00 (0000ms, 0756ms total)
T4684 000:925 JLINK_WriteReg(R14, 0x1FFFFC01)  returns 0x00 (0000ms, 0756ms total)
T4684 000:925 JLINK_WriteReg(R15 (PC), 0x1FFFFCDA)  returns 0x00 (0000ms, 0756ms total)
T4684 000:925 JLINK_WriteReg(XPSR, 0x01000000)  returns 0x00 (0000ms, 0756ms total)
T4684 000:925 JLINK_WriteReg(MSP, 0x20000C00)  returns 0x00 (0000ms, 0756ms total)
T4684 000:925 JLINK_WriteReg(PSP, 0x20000C00)  returns 0x00 (0000ms, 0756ms total)
T4684 000:925 JLINK_WriteReg(CFBP, 0x00000000)  returns 0x00 (0000ms, 0756ms total)
T4684 000:925 JLINK_SetBPEx(Addr = 0x1FFFFC00, Type = 0xFFFFFFF2)  returns 0x00000003 (0000ms, 0756ms total)
T4684 000:925 JLINK_Go() -- CPU_WriteMem(4 bytes @ 0xE0002000) -- CPU_ReadMem(4 bytes @ 0xE0001000) -- CPU_WriteMem(4 bytes @ 0xE0001000) (0004ms, 0760ms total)
T4684 000:929 JLINK_IsHalted()  returns FALSE (0001ms, 0761ms total)
T4684 001:059 JLINK_IsHalted()  returns TRUE (0002ms, 0762ms total)
T4684 001:062 JLINK_ReadReg(R15 (PC))  returns 0x1FFFFC00 (0000ms, 0760ms total)
T4684 001:062 JLINK_ClrBPEx(BPHandle = 0x00000003)  returns 0x00 (0000ms, 0760ms total)
T4684 001:062 JLINK_ReadReg(R0)  returns 0x00000000 (0000ms, 0760ms total)
T4684 001:063 JLINK_WriteReg(R0, 0x00000200)  returns 0x00 (0000ms, 0760ms total)
T4684 001:063 JLINK_WriteReg(R1, 0x00000200)  returns 0x00 (0000ms, 0760ms total)
T4684 001:063 JLINK_WriteReg(R2, 0x000000FF)  returns 0x00 (0000ms, 0760ms total)
T4684 001:063 JLINK_WriteReg(R3, 0x00000000)  returns 0x00 (0000ms, 0760ms total)
T4684 001:063 JLINK_WriteReg(R4, 0x00000000)  returns 0x00 (0000ms, 0760ms total)
T4684 001:063 JLINK_WriteReg(R5, 0x00000000)  returns 0x00 (0000ms, 0760ms total)
T4684 001:063 JLINK_WriteReg(R6, 0x00000000)  returns 0x00 (0000ms, 0760ms total)
T4684 001:063 JLINK_WriteReg(R7, 0x00000000)  returns 0x00 (0000ms, 0760ms total)
T4684 001:063 JLINK_WriteReg(R8, 0x00000000)  returns 0x00 (0000ms, 0760ms total)
T4684 001:063 JLINK_WriteReg(R9, 0x1FFFFDA8)  returns 0x00 (0000ms, 0760ms total)
T4684 001:063 JLINK_WriteReg(R10, 0x00000000)  returns 0x00 (0000ms, 0760ms total)
T4684 001:063 JLINK_WriteReg(R11, 0x00000000)  returns 0x00 (0000ms, 0760ms total)
T4684 001:063 JLINK_WriteReg(R12, 0x00000000)  returns 0x00 (0000ms, 0760ms total)
T4684 001:063 JLINK_WriteReg(R13 (SP), 0x20000C00)  returns 0x00 (0000ms, 0760ms total)
T4684 001:063 JLINK_WriteReg(R14, 0x1FFFFC01)  returns 0x00 (0000ms, 0760ms total)
T4684 001:063 JLINK_WriteReg(R15 (PC), 0x1FFFFC20)  returns 0x00 (0000ms, 0760ms total)
T4684 001:063 JLINK_WriteReg(XPSR, 0x01000000)  returns 0x00 (0000ms, 0760ms total)
T4684 001:063 JLINK_WriteReg(MSP, 0x20000C00)  returns 0x00 (0000ms, 0760ms total)
T4684 001:063 JLINK_WriteReg(PSP, 0x20000C00)  returns 0x00 (0000ms, 0760ms total)
T4684 001:063 JLINK_WriteReg(CFBP, 0x00000000)  returns 0x00 (0000ms, 0760ms total)
T4684 001:063 JLINK_SetBPEx(Addr = 0x1FFFFC00, Type = 0xFFFFFFF2)  returns 0x00000004 (0000ms, 0760ms total)
T4684 001:063 JLINK_Go() -- CPU_WriteMem(4 bytes @ 0xE0002000) -- CPU_ReadMem(4 bytes @ 0xE0001000) -- CPU_WriteMem(4 bytes @ 0xE0001000) (0003ms, 0763ms total)
T4684 001:066 JLINK_IsHalted()  returns TRUE (0003ms, 0766ms total)
T4684 001:069 JLINK_ReadReg(R15 (PC))  returns 0x1FFFFC00 (0000ms, 0763ms total)
T4684 001:069 JLINK_ClrBPEx(BPHandle = 0x00000004)  returns 0x00 (0000ms, 0763ms total)
T4684 001:069 JLINK_ReadReg(R0)  returns 0x00000001 (0000ms, 0763ms total)
T4684 001:069 JLINK_WriteReg(R0, 0x00000200)  returns 0x00 (0000ms, 0763ms total)
T4684 001:069 JLINK_WriteReg(R1, 0x00000200)  returns 0x00 (0000ms, 0763ms total)
T4684 001:069 JLINK_WriteReg(R2, 0x000000FF)  returns 0x00 (0000ms, 0763ms total)
T4684 001:069 JLINK_WriteReg(R3, 0x00000000)  returns 0x00 (0000ms, 0763ms total)
T4684 001:069 JLINK_WriteReg(R4, 0x00000000)  returns 0x00 (0000ms, 0763ms total)
T4684 001:069 JLINK_WriteReg(R5, 0x00000000)  returns 0x00 (0000ms, 0763ms total)
T4684 001:069 JLINK_WriteReg(R6, 0x00000000)  returns 0x00 (0000ms, 0763ms total)
T4684 001:070 JLINK_WriteReg(R7, 0x00000000)  returns 0x00 (0000ms, 0764ms total)
T4684 001:070 JLINK_WriteReg(R8, 0x00000000)  returns 0x00 (0000ms, 0764ms total)
T4684 001:070 JLINK_WriteReg(R9, 0x1FFFFDA8)  returns 0x00 (0000ms, 0764ms total)
T4684 001:070 JLINK_WriteReg(R10, 0x00000000)  returns 0x00 (0000ms, 0764ms total)
T4684 001:070 JLINK_WriteReg(R11, 0x00000000)  returns 0x00 (0000ms, 0764ms total)
T4684 001:070 JLINK_WriteReg(R12, 0x00000000)  returns 0x00 (0000ms, 0764ms total)
T4684 001:070 JLINK_WriteReg(R13 (SP), 0x20000C00)  returns 0x00 (0000ms, 0764ms total)
T4684 001:070 JLINK_WriteReg(R14, 0x1FFFFC01)  returns 0x00 (0000ms, 0764ms total)
T4684 001:070 JLINK_WriteReg(R15 (PC), 0x1FFFFCDA)  returns 0x00 (0000ms, 0764ms total)
T4684 001:070 JLINK_WriteReg(XPSR, 0x01000000)  returns 0x00 (0000ms, 0764ms total)
T4684 001:070 JLINK_WriteReg(MSP, 0x20000C00)  returns 0x00 (0000ms, 0764ms total)
T4684 001:070 JLINK_WriteReg(PSP, 0x20000C00)  returns 0x00 (0000ms, 0764ms total)
T4684 001:070 JLINK_WriteReg(CFBP, 0x00000000)  returns 0x00 (0000ms, 0764ms total)
T4684 001:070 JLINK_SetBPEx(Addr = 0x1FFFFC00, Type = 0xFFFFFFF2)  returns 0x00000005 (0000ms, 0764ms total)
T4684 001:070 JLINK_Go() -- CPU_WriteMem(4 bytes @ 0xE0002000) -- CPU_ReadMem(4 bytes @ 0xE0001000) -- CPU_WriteMem(4 bytes @ 0xE0001000) (0003ms, 0767ms total)
T4684 001:073 JLINK_IsHalted()  returns FALSE (0000ms, 0767ms total)
T4684 001:083 JLINK_IsHalted()  returns FALSE (0000ms, 0767ms total)
T4684 001:085 JLINK_IsHalted()  returns FALSE (0000ms, 0767ms total)
T4684 001:093 JLINK_IsHalted()  returns FALSE (0000ms, 0767ms total)
T4684 001:095 JLINK_IsHalted()  returns TRUE (0002ms, 0769ms total)
T4684 001:097 JLINK_ReadReg(R15 (PC))  returns 0x1FFFFC00 (0000ms, 0767ms total)
T4684 001:097 JLINK_ClrBPEx(BPHandle = 0x00000005)  returns 0x00 (0000ms, 0767ms total)
T4684 001:097 JLINK_ReadReg(R0)  returns 0x00000000 (0000ms, 0767ms total)
T4684 001:098 JLINK_WriteReg(R0, 0x00000400)  returns 0x00 (0000ms, 0767ms total)
T4684 001:098 JLINK_WriteReg(R1, 0x00000200)  returns 0x00 (0000ms, 0767ms total)
T4684 001:098 JLINK_WriteReg(R2, 0x000000FF)  returns 0x00 (0000ms, 0767ms total)
T4684 001:098 JLINK_WriteReg(R3, 0x00000000)  returns 0x00 (0000ms, 0767ms total)
T4684 001:098 JLINK_WriteReg(R4, 0x00000000)  returns 0x00 (0000ms, 0767ms total)
T4684 001:098 JLINK_WriteReg(R5, 0x00000000)  returns 0x00 (0000ms, 0767ms total)
T4684 001:098 JLINK_WriteReg(R6, 0x00000000)  returns 0x00 (0000ms, 0767ms total)
T4684 001:098 JLINK_WriteReg(R7, 0x00000000)  returns 0x00 (0000ms, 0767ms total)
T4684 001:098 JLINK_WriteReg(R8, 0x00000000)  returns 0x00 (0000ms, 0767ms total)
T4684 001:098 JLINK_WriteReg(R9, 0x1FFFFDA8)  returns 0x00 (0001ms, 0768ms total)
T4684 001:099 JLINK_WriteReg(R10, 0x00000000)  returns 0x00 (0000ms, 0768ms total)
T4684 001:099 JLINK_WriteReg(R11, 0x00000000)  returns 0x00 (0000ms, 0768ms total)
T4684 001:099 JLINK_WriteReg(R12, 0x00000000)  returns 0x00 (0000ms, 0768ms total)
T4684 001:099 JLINK_WriteReg(R13 (SP), 0x20000C00)  returns 0x00 (0000ms, 0768ms total)
T4684 001:099 JLINK_WriteReg(R14, 0x1FFFFC01)  returns 0x00 (0000ms, 0768ms total)
T4684 001:099 JLINK_WriteReg(R15 (PC), 0x1FFFFC20)  returns 0x00 (0000ms, 0768ms total)
T4684 001:099 JLINK_WriteReg(XPSR, 0x01000000)  returns 0x00 (0000ms, 0768ms total)
T4684 001:099 JLINK_WriteReg(MSP, 0x20000C00)  returns 0x00 (0000ms, 0768ms total)
T4684 001:099 JLINK_WriteReg(PSP, 0x20000C00)  returns 0x00 (0000ms, 0768ms total)
T4684 001:099 JLINK_WriteReg(CFBP, 0x00000000)  returns 0x00 (0000ms, 0768ms total)
T4684 001:099 JLINK_SetBPEx(Addr = 0x1FFFFC00, Type = 0xFFFFFFF2)  returns 0x00000006 (0000ms, 0768ms total)
T4684 001:099 JLINK_Go() -- CPU_WriteMem(4 bytes @ 0xE0002000) -- CPU_ReadMem(4 bytes @ 0xE0001000) -- CPU_WriteMem(4 bytes @ 0xE0001000) (0003ms, 0771ms total)
T4684 001:102 JLINK_IsHalted()  returns TRUE (0003ms, 0774ms total)
T4684 001:105 JLINK_ReadReg(R15 (PC))  returns 0x1FFFFC00 (0000ms, 0771ms total)
T4684 001:105 JLINK_ClrBPEx(BPHandle = 0x00000006)  returns 0x00 (0000ms, 0771ms total)
T4684 001:105 JLINK_ReadReg(R0)  returns 0x00000001 (0000ms, 0771ms total)
T4684 001:105 JLINK_WriteReg(R0, 0x00000400)  returns 0x00 (0000ms, 0771ms total)
T4684 001:105 JLINK_WriteReg(R1, 0x00000200)  returns 0x00 (0000ms, 0771ms total)
T4684 001:105 JLINK_WriteReg(R2, 0x000000FF)  returns 0x00 (0000ms, 0771ms total)
T4684 001:105 JLINK_WriteReg(R3, 0x00000000)  returns 0x00 (0000ms, 0771ms total)
T4684 001:105 JLINK_WriteReg(R4, 0x00000000)  returns 0x00 (0000ms, 0771ms total)
T4684 001:105 JLINK_WriteReg(R5, 0x00000000)  returns 0x00 (0000ms, 0771ms total)
T4684 001:105 JLINK_WriteReg(R6, 0x00000000)  returns 0x00 (0000ms, 0771ms total)
T4684 001:105 JLINK_WriteReg(R7, 0x00000000)  returns 0x00 (0000ms, 0771ms total)
T4684 001:105 JLINK_WriteReg(R8, 0x00000000)  returns 0x00 (0000ms, 0771ms total)
T4684 001:105 JLINK_WriteReg(R9, 0x1FFFFDA8)  returns 0x00 (0000ms, 0771ms total)
T4684 001:105 JLINK_WriteReg(R10, 0x00000000)  returns 0x00 (0000ms, 0771ms total)
T4684 001:105 JLINK_WriteReg(R11, 0x00000000)  returns 0x00 (0000ms, 0771ms total)
T4684 001:105 JLINK_WriteReg(R12, 0x00000000)  returns 0x00 (0000ms, 0771ms total)
T4684 001:105 JLINK_WriteReg(R13 (SP), 0x20000C00)  returns 0x00 (0000ms, 0771ms total)
T4684 001:105 JLINK_WriteReg(R14, 0x1FFFFC01)  returns 0x00 (0000ms, 0771ms total)
T4684 001:105 JLINK_WriteReg(R15 (PC), 0x1FFFFCDA)  returns 0x00 (0000ms, 0771ms total)
T4684 001:105 JLINK_WriteReg(XPSR, 0x01000000)  returns 0x00 (0000ms, 0771ms total)
T4684 001:105 JLINK_WriteReg(MSP, 0x20000C00)  returns 0x00 (0000ms, 0771ms total)
T4684 001:105 JLINK_WriteReg(PSP, 0x20000C00)  returns 0x00 (0000ms, 0771ms total)
T4684 001:105 JLINK_WriteReg(CFBP, 0x00000000)  returns 0x00 (0000ms, 0771ms total)
T4684 001:105 JLINK_SetBPEx(Addr = 0x1FFFFC00, Type = 0xFFFFFFF2)  returns 0x00000007 (0000ms, 0771ms total)
T4684 001:105 JLINK_Go() -- CPU_WriteMem(4 bytes @ 0xE0002000) -- CPU_ReadMem(4 bytes @ 0xE0001000) -- CPU_WriteMem(4 bytes @ 0xE0001000) (0004ms, 0775ms total)
T4684 001:109 JLINK_IsHalted()  returns FALSE (0001ms, 0776ms total)
T4684 001:123 JLINK_IsHalted()  returns FALSE (0000ms, 0775ms total)
T4684 001:125 JLINK_IsHalted()  returns FALSE (0000ms, 0775ms total)
T4684 001:127 JLINK_IsHalted()  returns FALSE (0000ms, 0775ms total)
T4684 001:129 JLINK_IsHalted()  returns FALSE (0000ms, 0775ms total)
T4684 001:131 JLINK_IsHalted()  returns TRUE (0002ms, 0777ms total)
T4684 001:133 JLINK_ReadReg(R15 (PC))  returns 0x1FFFFC00 (0000ms, 0775ms total)
T4684 001:133 JLINK_ClrBPEx(BPHandle = 0x00000007)  returns 0x00 (0000ms, 0775ms total)
T4684 001:133 JLINK_ReadReg(R0)  returns 0x00000000 (0000ms, 0775ms total)
T4684 001:134 JLINK_WriteReg(R0, 0x00000600)  returns 0x00 (0000ms, 0775ms total)
T4684 001:134 JLINK_WriteReg(R1, 0x00000200)  returns 0x00 (0001ms, 0776ms total)
T4684 001:135 JLINK_WriteReg(R2, 0x000000FF)  returns 0x00 (0000ms, 0776ms total)
T4684 001:135 JLINK_WriteReg(R3, 0x00000000)  returns 0x00 (0000ms, 0776ms total)
T4684 001:135 JLINK_WriteReg(R4, 0x00000000)  returns 0x00 (0000ms, 0776ms total)
T4684 001:135 JLINK_WriteReg(R5, 0x00000000)  returns 0x00 (0000ms, 0776ms total)
T4684 001:135 JLINK_WriteReg(R6, 0x00000000)  returns 0x00 (0000ms, 0776ms total)
T4684 001:135 JLINK_WriteReg(R7, 0x00000000)  returns 0x00 (0000ms, 0776ms total)
T4684 001:135 JLINK_WriteReg(R8, 0x00000000)  returns 0x00 (0000ms, 0776ms total)
T4684 001:135 JLINK_WriteReg(R9, 0x1FFFFDA8)  returns 0x00 (0000ms, 0776ms total)
T4684 001:135 JLINK_WriteReg(R10, 0x00000000)  returns 0x00 (0000ms, 0776ms total)
T4684 001:135 JLINK_WriteReg(R11, 0x00000000)  returns 0x00 (0000ms, 0776ms total)
T4684 001:135 JLINK_WriteReg(R12, 0x00000000)  returns 0x00 (0000ms, 0776ms total)
T4684 001:135 JLINK_WriteReg(R13 (SP), 0x20000C00)  returns 0x00 (0000ms, 0776ms total)
T4684 001:135 JLINK_WriteReg(R14, 0x1FFFFC01)  returns 0x00 (0000ms, 0776ms total)
T4684 001:135 JLINK_WriteReg(R15 (PC), 0x1FFFFC20)  returns 0x00 (0000ms, 0776ms total)
T4684 001:135 JLINK_WriteReg(XPSR, 0x01000000)  returns 0x00 (0000ms, 0776ms total)
T4684 001:135 JLINK_WriteReg(MSP, 0x20000C00)  returns 0x00 (0000ms, 0776ms total)
T4684 001:135 JLINK_WriteReg(PSP, 0x20000C00)  returns 0x00 (0000ms, 0776ms total)
T4684 001:135 JLINK_WriteReg(CFBP, 0x00000000)  returns 0x00 (0000ms, 0776ms total)
T4684 001:135 JLINK_SetBPEx(Addr = 0x1FFFFC00, Type = 0xFFFFFFF2)  returns 0x00000008 (0000ms, 0776ms total)
T4684 001:135 JLINK_Go() -- CPU_WriteMem(4 bytes @ 0xE0002000) -- CPU_ReadMem(4 bytes @ 0xE0001000) -- CPU_WriteMem(4 bytes @ 0xE0001000) (0003ms, 0779ms total)
T4684 001:138 JLINK_IsHalted()  returns TRUE (0003ms, 0782ms total)
T4684 001:141 JLINK_ReadReg(R15 (PC))  returns 0x1FFFFC00 (0000ms, 0779ms total)
T4684 001:141 JLINK_ClrBPEx(BPHandle = 0x00000008)  returns 0x00 (0000ms, 0779ms total)
T4684 001:141 JLINK_ReadReg(R0)  returns 0x00000001 (0000ms, 0779ms total)
T4684 001:141 JLINK_WriteReg(R0, 0x00000600)  returns 0x00 (0000ms, 0779ms total)
T4684 001:141 JLINK_WriteReg(R1, 0x00000200)  returns 0x00 (0000ms, 0779ms total)
T4684 001:141 JLINK_WriteReg(R2, 0x000000FF)  returns 0x00 (0000ms, 0779ms total)
T4684 001:141 JLINK_WriteReg(R3, 0x00000000)  returns 0x00 (0000ms, 0779ms total)
T4684 001:141 JLINK_WriteReg(R4, 0x00000000)  returns 0x00 (0000ms, 0779ms total)
T4684 001:142 JLINK_WriteReg(R5, 0x00000000)  returns 0x00 (0000ms, 0779ms total)
T4684 001:142 JLINK_WriteReg(R6, 0x00000000)  returns 0x00 (0000ms, 0779ms total)
T4684 001:142 JLINK_WriteReg(R7, 0x00000000)  returns 0x00 (0000ms, 0779ms total)
T4684 001:142 JLINK_WriteReg(R8, 0x00000000)  returns 0x00 (0000ms, 0779ms total)
T4684 001:142 JLINK_WriteReg(R9, 0x1FFFFDA8)  returns 0x00 (0000ms, 0779ms total)
T4684 001:142 JLINK_WriteReg(R10, 0x00000000)  returns 0x00 (0000ms, 0779ms total)
T4684 001:142 JLINK_WriteReg(R11, 0x00000000)  returns 0x00 (0000ms, 0779ms total)
T4684 001:142 JLINK_WriteReg(R12, 0x00000000)  returns 0x00 (0000ms, 0779ms total)
T4684 001:142 JLINK_WriteReg(R13 (SP), 0x20000C00)  returns 0x00 (0000ms, 0779ms total)
T4684 001:142 JLINK_WriteReg(R14, 0x1FFFFC01)  returns 0x00 (0000ms, 0779ms total)
T4684 001:142 JLINK_WriteReg(R15 (PC), 0x1FFFFCDA)  returns 0x00 (0000ms, 0779ms total)
T4684 001:142 JLINK_WriteReg(XPSR, 0x01000000)  returns 0x00 (0000ms, 0779ms total)
T4684 001:142 JLINK_WriteReg(MSP, 0x20000C00)  returns 0x00 (0000ms, 0779ms total)
T4684 001:142 JLINK_WriteReg(PSP, 0x20000C00)  returns 0x00 (0000ms, 0779ms total)
T4684 001:142 JLINK_WriteReg(CFBP, 0x00000000)  returns 0x00 (0000ms, 0779ms total)
T4684 001:142 JLINK_SetBPEx(Addr = 0x1FFFFC00, Type = 0xFFFFFFF2)  returns 0x00000009 (0000ms, 0779ms total)
T4684 001:142 JLINK_Go() -- CPU_WriteMem(4 bytes @ 0xE0002000) -- CPU_ReadMem(4 bytes @ 0xE0001000) -- CPU_WriteMem(4 bytes @ 0xE0001000) (0003ms, 0782ms total)
T4684 001:146 JLINK_IsHalted()  returns FALSE (0000ms, 0783ms total)
T4684 001:151 JLINK_IsHalted()  returns FALSE (0000ms, 0783ms total)
T4684 001:153 JLINK_IsHalted()  returns FALSE (0000ms, 0783ms total)
T4684 001:155 JLINK_IsHalted()  returns FALSE (0000ms, 0783ms total)
T4684 001:157 JLINK_IsHalted()  returns FALSE (0000ms, 0783ms total)
T4684 001:159 JLINK_IsHalted()  returns FALSE (0000ms, 0783ms total)
T4684 001:161 JLINK_IsHalted()  returns FALSE (0000ms, 0783ms total)
T4684 001:167 JLINK_IsHalted()  returns TRUE (0003ms, 0786ms total)
T4684 001:170 JLINK_ReadReg(R15 (PC))  returns 0x1FFFFC00 (0000ms, 0783ms total)
T4684 001:170 JLINK_ClrBPEx(BPHandle = 0x00000009)  returns 0x00 (0000ms, 0783ms total)
T4684 001:170 JLINK_ReadReg(R0)  returns 0x00000000 (0000ms, 0783ms total)
T4684 001:170 JLINK_WriteReg(R0, 0x00000800)  returns 0x00 (0000ms, 0783ms total)
T4684 001:170 JLINK_WriteReg(R1, 0x00000200)  returns 0x00 (0000ms, 0783ms total)
T4684 001:170 JLINK_WriteReg(R2, 0x000000FF)  returns 0x00 (0000ms, 0783ms total)
T4684 001:170 JLINK_WriteReg(R3, 0x00000000)  returns 0x00 (0000ms, 0783ms total)
T4684 001:170 JLINK_WriteReg(R4, 0x00000000)  returns 0x00 (0000ms, 0783ms total)
T4684 001:171 JLINK_WriteReg(R5, 0x00000000)  returns 0x00 (0000ms, 0783ms total)
T4684 001:171 JLINK_WriteReg(R6, 0x00000000)  returns 0x00 (0000ms, 0783ms total)
T4684 001:171 JLINK_WriteReg(R7, 0x00000000)  returns 0x00 (0000ms, 0783ms total)
T4684 001:171 JLINK_WriteReg(R8, 0x00000000)  returns 0x00 (0000ms, 0783ms total)
T4684 001:171 JLINK_WriteReg(R9, 0x1FFFFDA8)  returns 0x00 (0000ms, 0783ms total)
T4684 001:171 JLINK_WriteReg(R10, 0x00000000)  returns 0x00 (0000ms, 0783ms total)
T4684 001:171 JLINK_WriteReg(R11, 0x00000000)  returns 0x00 (0000ms, 0783ms total)
T4684 001:171 JLINK_WriteReg(R12, 0x00000000)  returns 0x00 (0000ms, 0783ms total)
T4684 001:171 JLINK_WriteReg(R13 (SP), 0x20000C00)  returns 0x00 (0000ms, 0783ms total)
T4684 001:171 JLINK_WriteReg(R14, 0x1FFFFC01)  returns 0x00 (0000ms, 0783ms total)
T4684 001:171 JLINK_WriteReg(R15 (PC), 0x1FFFFC20)  returns 0x00 (0000ms, 0783ms total)
T4684 001:171 JLINK_WriteReg(XPSR, 0x01000000)  returns 0x00 (0000ms, 0783ms total)
T4684 001:171 JLINK_WriteReg(MSP, 0x20000C00)  returns 0x00 (0000ms, 0783ms total)
T4684 001:171 JLINK_WriteReg(PSP, 0x20000C00)  returns 0x00 (0000ms, 0783ms total)
T4684 001:171 JLINK_WriteReg(CFBP, 0x00000000)  returns 0x00 (0000ms, 0783ms total)
T4684 001:171 JLINK_SetBPEx(Addr = 0x1FFFFC00, Type = 0xFFFFFFF2)  returns 0x0000000A (0000ms, 0783ms total)
T4684 001:171 JLINK_Go() -- CPU_WriteMem(4 bytes @ 0xE0002000) -- CPU_ReadMem(4 bytes @ 0xE0001000) -- CPU_WriteMem(4 bytes @ 0xE0001000) (0003ms, 0786ms total)
T4684 001:175 JLINK_IsHalted()  returns TRUE (0003ms, 0790ms total)
T4684 001:178 JLINK_ReadReg(R15 (PC))  returns 0x1FFFFC00 (0000ms, 0787ms total)
T4684 001:178 JLINK_ClrBPEx(BPHandle = 0x0000000A)  returns 0x00 (0000ms, 0787ms total)
T4684 001:178 JLINK_ReadReg(R0)  returns 0x00000001 (0000ms, 0787ms total)
T4684 001:178 JLINK_WriteReg(R0, 0x00000800)  returns 0x00 (0000ms, 0787ms total)
T4684 001:178 JLINK_WriteReg(R1, 0x00000200)  returns 0x00 (0000ms, 0787ms total)
T4684 001:178 JLINK_WriteReg(R2, 0x000000FF)  returns 0x00 (0000ms, 0787ms total)
T4684 001:178 JLINK_WriteReg(R3, 0x00000000)  returns 0x00 (0000ms, 0787ms total)
T4684 001:178 JLINK_WriteReg(R4, 0x00000000)  returns 0x00 (0000ms, 0787ms total)
T4684 001:178 JLINK_WriteReg(R5, 0x00000000)  returns 0x00 (0000ms, 0787ms total)
T4684 001:178 JLINK_WriteReg(R6, 0x00000000)  returns 0x00 (0000ms, 0787ms total)
T4684 001:178 JLINK_WriteReg(R7, 0x00000000)  returns 0x00 (0000ms, 0787ms total)
T4684 001:178 JLINK_WriteReg(R8, 0x00000000)  returns 0x00 (0000ms, 0787ms total)
T4684 001:178 JLINK_WriteReg(R9, 0x1FFFFDA8)  returns 0x00 (0000ms, 0787ms total)
T4684 001:178 JLINK_WriteReg(R10, 0x00000000)  returns 0x00 (0000ms, 0787ms total)
T4684 001:178 JLINK_WriteReg(R11, 0x00000000)  returns 0x00 (0000ms, 0787ms total)
T4684 001:178 JLINK_WriteReg(R12, 0x00000000)  returns 0x00 (0000ms, 0787ms total)
T4684 001:178 JLINK_WriteReg(R13 (SP), 0x20000C00)  returns 0x00 (0000ms, 0787ms total)
T4684 001:178 JLINK_WriteReg(R14, 0x1FFFFC01)  returns 0x00 (0000ms, 0787ms total)
T4684 001:178 JLINK_WriteReg(R15 (PC), 0x1FFFFCDA)  returns 0x00 (0000ms, 0787ms total)
T4684 001:178 JLINK_WriteReg(XPSR, 0x01000000)  returns 0x00 (0000ms, 0787ms total)
T4684 001:178 JLINK_WriteReg(MSP, 0x20000C00)  returns 0x00 (0000ms, 0787ms total)
T4684 001:178 JLINK_WriteReg(PSP, 0x20000C00)  returns 0x00 (0000ms, 0787ms total)
T4684 001:178 JLINK_WriteReg(CFBP, 0x00000000)  returns 0x00 (0000ms, 0787ms total)
T4684 001:178 JLINK_SetBPEx(Addr = 0x1FFFFC00, Type = 0xFFFFFFF2)  returns 0x0000000B (0000ms, 0787ms total)
T4684 001:178 JLINK_Go() -- CPU_WriteMem(4 bytes @ 0xE0002000) -- CPU_ReadMem(4 bytes @ 0xE0001000) -- CPU_WriteMem(4 bytes @ 0xE0001000) (0004ms, 0791ms total)
T4684 001:182 JLINK_IsHalted()  returns FALSE (0000ms, 0791ms total)
T4684 001:198 JLINK_IsHalted()  returns FALSE (0000ms, 0791ms total)
T4684 001:200 JLINK_IsHalted()  returns FALSE (0000ms, 0791ms total)
T4684 001:202 JLINK_IsHalted()  returns FALSE (0000ms, 0791ms total)
T4684 001:204 JLINK_IsHalted()  returns TRUE (0002ms, 0793ms total)
T4684 001:207 JLINK_ReadReg(R15 (PC))  returns 0x1FFFFC00 (0000ms, 0791ms total)
T4684 001:207 JLINK_ClrBPEx(BPHandle = 0x0000000B)  returns 0x00 (0000ms, 0791ms total)
T4684 001:207 JLINK_ReadReg(R0)  returns 0x00000000 (0000ms, 0791ms total)
T4684 001:207 JLINK_WriteReg(R0, 0x00000A00)  returns 0x00 (0000ms, 0791ms total)
T4684 001:207 JLINK_WriteReg(R1, 0x00000200)  returns 0x00 (0000ms, 0791ms total)
T4684 001:207 JLINK_WriteReg(R2, 0x000000FF)  returns 0x00 (0000ms, 0791ms total)
T4684 001:207 JLINK_WriteReg(R3, 0x00000000)  returns 0x00 (0000ms, 0791ms total)
T4684 001:207 JLINK_WriteReg(R4, 0x00000000)  returns 0x00 (0000ms, 0791ms total)
T4684 001:207 JLINK_WriteReg(R5, 0x00000000)  returns 0x00 (0000ms, 0791ms total)
T4684 001:208 JLINK_WriteReg(R6, 0x00000000)  returns 0x00 (0000ms, 0792ms total)
T4684 001:208 JLINK_WriteReg(R7, 0x00000000)  returns 0x00 (0000ms, 0792ms total)
T4684 001:208 JLINK_WriteReg(R8, 0x00000000)  returns 0x00 (0000ms, 0792ms total)
T4684 001:208 JLINK_WriteReg(R9, 0x1FFFFDA8)  returns 0x00 (0000ms, 0792ms total)
T4684 001:208 JLINK_WriteReg(R10, 0x00000000)  returns 0x00 (0000ms, 0792ms total)
T4684 001:208 JLINK_WriteReg(R11, 0x00000000)  returns 0x00 (0000ms, 0792ms total)
T4684 001:208 JLINK_WriteReg(R12, 0x00000000)  returns 0x00 (0000ms, 0792ms total)
T4684 001:208 JLINK_WriteReg(R13 (SP), 0x20000C00)  returns 0x00 (0000ms, 0792ms total)
T4684 001:208 JLINK_WriteReg(R14, 0x1FFFFC01)  returns 0x00 (0000ms, 0792ms total)
T4684 001:208 JLINK_WriteReg(R15 (PC), 0x1FFFFC20)  returns 0x00 (0000ms, 0792ms total)
T4684 001:208 JLINK_WriteReg(XPSR, 0x01000000)  returns 0x00 (0000ms, 0792ms total)
T4684 001:208 JLINK_WriteReg(MSP, 0x20000C00)  returns 0x00 (0000ms, 0792ms total)
T4684 001:208 JLINK_WriteReg(PSP, 0x20000C00)  returns 0x00 (0000ms, 0792ms total)
T4684 001:208 JLINK_WriteReg(CFBP, 0x00000000)  returns 0x00 (0000ms, 0792ms total)
T4684 001:208 JLINK_SetBPEx(Addr = 0x1FFFFC00, Type = 0xFFFFFFF2)  returns 0x0000000C (0000ms, 0792ms total)
T4684 001:208 JLINK_Go() -- CPU_WriteMem(4 bytes @ 0xE0002000) -- CPU_ReadMem(4 bytes @ 0xE0001000) -- CPU_WriteMem(4 bytes @ 0xE0001000) (0004ms, 0796ms total)
T4684 001:212 JLINK_IsHalted()  returns TRUE (0003ms, 0799ms total)
T4684 001:215 JLINK_ReadReg(R15 (PC))  returns 0x1FFFFC00 (0000ms, 0796ms total)
T4684 001:215 JLINK_ClrBPEx(BPHandle = 0x0000000C)  returns 0x00 (0000ms, 0796ms total)
T4684 001:215 JLINK_ReadReg(R0)  returns 0x00000001 (0000ms, 0796ms total)
T4684 001:215 JLINK_WriteReg(R0, 0x00000A00)  returns 0x00 (0000ms, 0796ms total)
T4684 001:215 JLINK_WriteReg(R1, 0x00000200)  returns 0x00 (0000ms, 0796ms total)
T4684 001:215 JLINK_WriteReg(R2, 0x000000FF)  returns 0x00 (0000ms, 0796ms total)
T4684 001:215 JLINK_WriteReg(R3, 0x00000000)  returns 0x00 (0000ms, 0796ms total)
T4684 001:215 JLINK_WriteReg(R4, 0x00000000)  returns 0x00 (0000ms, 0796ms total)
T4684 001:215 JLINK_WriteReg(R5, 0x00000000)  returns 0x00 (0000ms, 0796ms total)
T4684 001:215 JLINK_WriteReg(R6, 0x00000000)  returns 0x00 (0000ms, 0796ms total)
T4684 001:215 JLINK_WriteReg(R7, 0x00000000)  returns 0x00 (0000ms, 0796ms total)
T4684 001:215 JLINK_WriteReg(R8, 0x00000000)  returns 0x00 (0001ms, 0797ms total)
T4684 001:216 JLINK_WriteReg(R9, 0x1FFFFDA8)  returns 0x00 (0000ms, 0797ms total)
T4684 001:216 JLINK_WriteReg(R10, 0x00000000)  returns 0x00 (0000ms, 0797ms total)
T4684 001:216 JLINK_WriteReg(R11, 0x00000000)  returns 0x00 (0000ms, 0797ms total)
T4684 001:216 JLINK_WriteReg(R12, 0x00000000)  returns 0x00 (0000ms, 0797ms total)
T4684 001:216 JLINK_WriteReg(R13 (SP), 0x20000C00)  returns 0x00 (0000ms, 0797ms total)
T4684 001:216 JLINK_WriteReg(R14, 0x1FFFFC01)  returns 0x00 (0000ms, 0797ms total)
T4684 001:216 JLINK_WriteReg(R15 (PC), 0x1FFFFCDA)  returns 0x00 (0000ms, 0797ms total)
T4684 001:216 JLINK_WriteReg(XPSR, 0x01000000)  returns 0x00 (0000ms, 0797ms total)
T4684 001:216 JLINK_WriteReg(MSP, 0x20000C00)  returns 0x00 (0000ms, 0797ms total)
T4684 001:216 JLINK_WriteReg(PSP, 0x20000C00)  returns 0x00 (0000ms, 0797ms total)
T4684 001:216 JLINK_WriteReg(CFBP, 0x00000000)  returns 0x00 (0000ms, 0797ms total)
T4684 001:216 JLINK_SetBPEx(Addr = 0x1FFFFC00, Type = 0xFFFFFFF2)  returns 0x0000000D (0000ms, 0797ms total)
T4684 001:216 JLINK_Go() -- CPU_WriteMem(4 bytes @ 0xE0002000) -- CPU_ReadMem(4 bytes @ 0xE0001000) -- CPU_WriteMem(4 bytes @ 0xE0001000) (0003ms, 0800ms total)
T4684 001:220 JLINK_IsHalted()  returns FALSE (0000ms, 0800ms total)
T4684 001:228 JLINK_IsHalted()  returns FALSE (0000ms, 0800ms total)
T4684 001:230 JLINK_IsHalted()  returns FALSE (0000ms, 0800ms total)
T4684 001:232 JLINK_IsHalted()  returns FALSE (0000ms, 0800ms total)
T4684 001:234 JLINK_IsHalted()  returns FALSE (0000ms, 0800ms total)
T4684 001:236 JLINK_IsHalted()  returns FALSE (0000ms, 0800ms total)
T4684 001:238 JLINK_IsHalted()  returns FALSE (0000ms, 0800ms total)
T4684 001:241 JLINK_IsHalted()  returns TRUE (0002ms, 0802ms total)
T4684 001:243 JLINK_ReadReg(R15 (PC))  returns 0x1FFFFC00 (0000ms, 0800ms total)
T4684 001:243 JLINK_ClrBPEx(BPHandle = 0x0000000D)  returns 0x00 (0000ms, 0800ms total)
T4684 001:243 JLINK_ReadReg(R0)  returns 0x00000000 (0000ms, 0800ms total)
T4684 001:244 JLINK_WriteReg(R0, 0x00000C00)  returns 0x00 (0000ms, 0800ms total)
T4684 001:244 JLINK_WriteReg(R1, 0x00000200)  returns 0x00 (0001ms, 0801ms total)
T4684 001:245 JLINK_WriteReg(R2, 0x000000FF)  returns 0x00 (0000ms, 0801ms total)
T4684 001:245 JLINK_WriteReg(R3, 0x00000000)  returns 0x00 (0000ms, 0801ms total)
T4684 001:245 JLINK_WriteReg(R4, 0x00000000)  returns 0x00 (0000ms, 0801ms total)
T4684 001:245 JLINK_WriteReg(R5, 0x00000000)  returns 0x00 (0000ms, 0801ms total)
T4684 001:245 JLINK_WriteReg(R6, 0x00000000)  returns 0x00 (0000ms, 0801ms total)
T4684 001:245 JLINK_WriteReg(R7, 0x00000000)  returns 0x00 (0000ms, 0801ms total)
T4684 001:245 JLINK_WriteReg(R8, 0x00000000)  returns 0x00 (0000ms, 0801ms total)
T4684 001:245 JLINK_WriteReg(R9, 0x1FFFFDA8)  returns 0x00 (0000ms, 0801ms total)
T4684 001:245 JLINK_WriteReg(R10, 0x00000000)  returns 0x00 (0000ms, 0801ms total)
T4684 001:245 JLINK_WriteReg(R11, 0x00000000)  returns 0x00 (0000ms, 0801ms total)
T4684 001:245 JLINK_WriteReg(R12, 0x00000000)  returns 0x00 (0000ms, 0801ms total)
T4684 001:245 JLINK_WriteReg(R13 (SP), 0x20000C00)  returns 0x00 (0000ms, 0801ms total)
T4684 001:245 JLINK_WriteReg(R14, 0x1FFFFC01)  returns 0x00 (0000ms, 0801ms total)
T4684 001:245 JLINK_WriteReg(R15 (PC), 0x1FFFFC20)  returns 0x00 (0000ms, 0801ms total)
T4684 001:245 JLINK_WriteReg(XPSR, 0x01000000)  returns 0x00 (0000ms, 0801ms total)
T4684 001:245 JLINK_WriteReg(MSP, 0x20000C00)  returns 0x00 (0000ms, 0801ms total)
T4684 001:245 JLINK_WriteReg(PSP, 0x20000C00)  returns 0x00 (0000ms, 0801ms total)
T4684 001:245 JLINK_WriteReg(CFBP, 0x00000000)  returns 0x00 (0000ms, 0801ms total)
T4684 001:245 JLINK_SetBPEx(Addr = 0x1FFFFC00, Type = 0xFFFFFFF2)  returns 0x0000000E (0000ms, 0801ms total)
T4684 001:245 JLINK_Go() -- CPU_WriteMem(4 bytes @ 0xE0002000) -- CPU_ReadMem(4 bytes @ 0xE0001000) -- CPU_WriteMem(4 bytes @ 0xE0001000) (0004ms, 0805ms total)
T4684 001:249 JLINK_IsHalted()  returns TRUE (0003ms, 0808ms total)
T4684 001:252 JLINK_ReadReg(R15 (PC))  returns 0x1FFFFC00 (0000ms, 0805ms total)
T4684 001:252 JLINK_ClrBPEx(BPHandle = 0x0000000E)  returns 0x00 (0000ms, 0805ms total)
T4684 001:252 JLINK_ReadReg(R0)  returns 0x00000001 (0000ms, 0805ms total)
T4684 001:252 JLINK_WriteReg(R0, 0x00000C00)  returns 0x00 (0000ms, 0805ms total)
T4684 001:252 JLINK_WriteReg(R1, 0x00000200)  returns 0x00 (0000ms, 0805ms total)
T4684 001:252 JLINK_WriteReg(R2, 0x000000FF)  returns 0x00 (0000ms, 0805ms total)
T4684 001:252 JLINK_WriteReg(R3, 0x00000000)  returns 0x00 (0000ms, 0805ms total)
T4684 001:252 JLINK_WriteReg(R4, 0x00000000)  returns 0x00 (0000ms, 0805ms total)
T4684 001:252 JLINK_WriteReg(R5, 0x00000000)  returns 0x00 (0000ms, 0805ms total)
T4684 001:252 JLINK_WriteReg(R6, 0x00000000)  returns 0x00 (0000ms, 0805ms total)
T4684 001:252 JLINK_WriteReg(R7, 0x00000000)  returns 0x00 (0000ms, 0805ms total)
T4684 001:252 JLINK_WriteReg(R8, 0x00000000)  returns 0x00 (0000ms, 0805ms total)
T4684 001:252 JLINK_WriteReg(R9, 0x1FFFFDA8)  returns 0x00 (0000ms, 0805ms total)
T4684 001:252 JLINK_WriteReg(R10, 0x00000000)  returns 0x00 (0000ms, 0805ms total)
T4684 001:252 JLINK_WriteReg(R11, 0x00000000)  returns 0x00 (0000ms, 0805ms total)
T4684 001:252 JLINK_WriteReg(R12, 0x00000000)  returns 0x00 (0000ms, 0805ms total)
T4684 001:252 JLINK_WriteReg(R13 (SP), 0x20000C00)  returns 0x00 (0000ms, 0805ms total)
T4684 001:252 JLINK_WriteReg(R14, 0x1FFFFC01)  returns 0x00 (0000ms, 0805ms total)
T4684 001:252 JLINK_WriteReg(R15 (PC), 0x1FFFFCDA)  returns 0x00 (0000ms, 0805ms total)
T4684 001:252 JLINK_WriteReg(XPSR, 0x01000000)  returns 0x00 (0000ms, 0805ms total)
T4684 001:252 JLINK_WriteReg(MSP, 0x20000C00)  returns 0x00 (0000ms, 0805ms total)
T4684 001:252 JLINK_WriteReg(PSP, 0x20000C00)  returns 0x00 (0001ms, 0806ms total)
T4684 001:253 JLINK_WriteReg(CFBP, 0x00000000)  returns 0x00 (0000ms, 0806ms total)
T4684 001:253 JLINK_SetBPEx(Addr = 0x1FFFFC00, Type = 0xFFFFFFF2)  returns 0x0000000F (0000ms, 0806ms total)
T4684 001:253 JLINK_Go() -- CPU_WriteMem(4 bytes @ 0xE0002000) -- CPU_ReadMem(4 bytes @ 0xE0001000) -- CPU_WriteMem(4 bytes @ 0xE0001000) (0003ms, 0809ms total)
T4684 001:256 JLINK_IsHalted()  returns FALSE (0001ms, 0810ms total)
T4684 001:262 JLINK_IsHalted()  returns FALSE (0000ms, 0809ms total)
T4684 001:264 JLINK_IsHalted()  returns FALSE (0000ms, 0809ms total)
T4684 001:266 JLINK_IsHalted()  returns FALSE (0000ms, 0809ms total)
T4684 001:268 JLINK_IsHalted()  returns FALSE (0000ms, 0809ms total)
T4684 001:270 JLINK_IsHalted()  returns FALSE (0000ms, 0809ms total)
T4684 001:272 JLINK_IsHalted()  returns FALSE (0000ms, 0809ms total)
T4684 001:281 JLINK_IsHalted()  returns TRUE (0002ms, 0811ms total)
T4684 001:283 JLINK_ReadReg(R15 (PC))  returns 0x1FFFFC00 (0000ms, 0809ms total)
T4684 001:283 JLINK_ClrBPEx(BPHandle = 0x0000000F)  returns 0x00 (0000ms, 0809ms total)
T4684 001:283 JLINK_ReadReg(R0)  returns 0x00000000 (0000ms, 0809ms total)
T4684 001:284 JLINK_WriteReg(R0, 0x00000E00)  returns 0x00 (0000ms, 0809ms total)
T4684 001:284 JLINK_WriteReg(R1, 0x00000200)  returns 0x00 (0000ms, 0809ms total)
T4684 001:284 JLINK_WriteReg(R2, 0x000000FF)  returns 0x00 (0000ms, 0809ms total)
T4684 001:284 JLINK_WriteReg(R3, 0x00000000)  returns 0x00 (0000ms, 0809ms total)
T4684 001:284 JLINK_WriteReg(R4, 0x00000000)  returns 0x00 (0000ms, 0809ms total)
T4684 001:284 JLINK_WriteReg(R5, 0x00000000)  returns 0x00 (0000ms, 0809ms total)
T4684 001:284 JLINK_WriteReg(R6, 0x00000000)  returns 0x00 (0000ms, 0809ms total)
T4684 001:284 JLINK_WriteReg(R7, 0x00000000)  returns 0x00 (0000ms, 0809ms total)
T4684 001:284 JLINK_WriteReg(R8, 0x00000000)  returns 0x00 (0000ms, 0809ms total)
T4684 001:284 JLINK_WriteReg(R9, 0x1FFFFDA8)  returns 0x00 (0000ms, 0809ms total)
T4684 001:284 JLINK_WriteReg(R10, 0x00000000)  returns 0x00 (0000ms, 0809ms total)
T4684 001:284 JLINK_WriteReg(R11, 0x00000000)  returns 0x00 (0000ms, 0809ms total)
T4684 001:284 JLINK_WriteReg(R12, 0x00000000)  returns 0x00 (0000ms, 0809ms total)
T4684 001:284 JLINK_WriteReg(R13 (SP), 0x20000C00)  returns 0x00 (0000ms, 0809ms total)
T4684 001:284 JLINK_WriteReg(R14, 0x1FFFFC01)  returns 0x00 (0001ms, 0810ms total)
T4684 001:285 JLINK_WriteReg(R15 (PC), 0x1FFFFC20)  returns 0x00 (0000ms, 0810ms total)
T4684 001:285 JLINK_WriteReg(XPSR, 0x01000000)  returns 0x00 (0000ms, 0810ms total)
T4684 001:285 JLINK_WriteReg(MSP, 0x20000C00)  returns 0x00 (0000ms, 0810ms total)
T4684 001:285 JLINK_WriteReg(PSP, 0x20000C00)  returns 0x00 (0000ms, 0810ms total)
T4684 001:285 JLINK_WriteReg(CFBP, 0x00000000)  returns 0x00 (0000ms, 0810ms total)
T4684 001:285 JLINK_SetBPEx(Addr = 0x1FFFFC00, Type = 0xFFFFFFF2)  returns 0x00000010 (0000ms, 0810ms total)
T4684 001:285 JLINK_Go() -- CPU_WriteMem(4 bytes @ 0xE0002000) -- CPU_ReadMem(4 bytes @ 0xE0001000) -- CPU_WriteMem(4 bytes @ 0xE0001000) (0003ms, 0813ms total)
T4684 001:288 JLINK_IsHalted()  returns TRUE (0003ms, 0816ms total)
T4684 001:291 JLINK_ReadReg(R15 (PC))  returns 0x1FFFFC00 (0000ms, 0813ms total)
T4684 001:291 JLINK_ClrBPEx(BPHandle = 0x00000010)  returns 0x00 (0000ms, 0813ms total)
T4684 001:291 JLINK_ReadReg(R0)  returns 0x00000001 (0001ms, 0814ms total)
T4684 001:292 JLINK_WriteReg(R0, 0x00000E00)  returns 0x00 (0000ms, 0814ms total)
T4684 001:292 JLINK_WriteReg(R1, 0x00000200)  returns 0x00 (0000ms, 0814ms total)
T4684 001:292 JLINK_WriteReg(R2, 0x000000FF)  returns 0x00 (0000ms, 0814ms total)
T4684 001:292 JLINK_WriteReg(R3, 0x00000000)  returns 0x00 (0000ms, 0814ms total)
T4684 001:292 JLINK_WriteReg(R4, 0x00000000)  returns 0x00 (0000ms, 0814ms total)
T4684 001:292 JLINK_WriteReg(R5, 0x00000000)  returns 0x00 (0000ms, 0814ms total)
T4684 001:292 JLINK_WriteReg(R6, 0x00000000)  returns 0x00 (0000ms, 0814ms total)
T4684 001:292 JLINK_WriteReg(R7, 0x00000000)  returns 0x00 (0000ms, 0814ms total)
T4684 001:292 JLINK_WriteReg(R8, 0x00000000)  returns 0x00 (0000ms, 0814ms total)
T4684 001:292 JLINK_WriteReg(R9, 0x1FFFFDA8)  returns 0x00 (0000ms, 0814ms total)
T4684 001:292 JLINK_WriteReg(R10, 0x00000000)  returns 0x00 (0000ms, 0814ms total)
T4684 001:292 JLINK_WriteReg(R11, 0x00000000)  returns 0x00 (0000ms, 0814ms total)
T4684 001:292 JLINK_WriteReg(R12, 0x00000000)  returns 0x00 (0000ms, 0814ms total)
T4684 001:292 JLINK_WriteReg(R13 (SP), 0x20000C00)  returns 0x00 (0000ms, 0814ms total)
T4684 001:292 JLINK_WriteReg(R14, 0x1FFFFC01)  returns 0x00 (0000ms, 0814ms total)
T4684 001:292 JLINK_WriteReg(R15 (PC), 0x1FFFFCDA)  returns 0x00 (0000ms, 0814ms total)
T4684 001:292 JLINK_WriteReg(XPSR, 0x01000000)  returns 0x00 (0000ms, 0814ms total)
T4684 001:292 JLINK_WriteReg(MSP, 0x20000C00)  returns 0x00 (0000ms, 0814ms total)
T4684 001:292 JLINK_WriteReg(PSP, 0x20000C00)  returns 0x00 (0000ms, 0814ms total)
T4684 001:292 JLINK_WriteReg(CFBP, 0x00000000)  returns 0x00 (0000ms, 0814ms total)
T4684 001:292 JLINK_SetBPEx(Addr = 0x1FFFFC00, Type = 0xFFFFFFF2)  returns 0x00000011 (0000ms, 0814ms total)
T4684 001:292 JLINK_Go() -- CPU_WriteMem(4 bytes @ 0xE0002000) -- CPU_ReadMem(4 bytes @ 0xE0001000) -- CPU_WriteMem(4 bytes @ 0xE0001000) (0004ms, 0818ms total)
T4684 001:296 JLINK_IsHalted()  returns FALSE (0000ms, 0818ms total)
T4684 001:312 JLINK_IsHalted()  returns FALSE (0000ms, 0818ms total)
T4684 001:314 JLINK_IsHalted()  returns FALSE (0000ms, 0818ms total)
T4684 001:323 JLINK_IsHalted()  returns TRUE (0002ms, 0820ms total)
T4684 001:326 JLINK_ReadReg(R15 (PC))  returns 0x1FFFFC00 (0000ms, 0818ms total)
T4684 001:326 JLINK_ClrBPEx(BPHandle = 0x00000011)  returns 0x00 (0000ms, 0818ms total)
T4684 001:326 JLINK_ReadReg(R0)  returns 0x00000000 (0000ms, 0818ms total)
T4684 001:327 JLINK_WriteReg(R0, 0x00001000)  returns 0x00 (0000ms, 0818ms total)
T4684 001:327 JLINK_WriteReg(R1, 0x00000200)  returns 0x00 (0000ms, 0818ms total)
T4684 001:327 JLINK_WriteReg(R2, 0x000000FF)  returns 0x00 (0000ms, 0818ms total)
T4684 001:327 JLINK_WriteReg(R3, 0x00000000)  returns 0x00 (0000ms, 0818ms total)
T4684 001:327 JLINK_WriteReg(R4, 0x00000000)  returns 0x00 (0000ms, 0818ms total)
T4684 001:327 JLINK_WriteReg(R5, 0x00000000)  returns 0x00 (0000ms, 0818ms total)
T4684 001:327 JLINK_WriteReg(R6, 0x00000000)  returns 0x00 (0000ms, 0818ms total)
T4684 001:327 JLINK_WriteReg(R7, 0x00000000)  returns 0x00 (0000ms, 0818ms total)
T4684 001:327 JLINK_WriteReg(R8, 0x00000000)  returns 0x00 (0000ms, 0818ms total)
T4684 001:327 JLINK_WriteReg(R9, 0x1FFFFDA8)  returns 0x00 (0000ms, 0818ms total)
T4684 001:327 JLINK_WriteReg(R10, 0x00000000)  returns 0x00 (0000ms, 0818ms total)
T4684 001:327 JLINK_WriteReg(R11, 0x00000000)  returns 0x00 (0000ms, 0818ms total)
T4684 001:327 JLINK_WriteReg(R12, 0x00000000)  returns 0x00 (0000ms, 0818ms total)
T4684 001:327 JLINK_WriteReg(R13 (SP), 0x20000C00)  returns 0x00 (0000ms, 0818ms total)
T4684 001:327 JLINK_WriteReg(R14, 0x1FFFFC01)  returns 0x00 (0000ms, 0818ms total)
T4684 001:327 JLINK_WriteReg(R15 (PC), 0x1FFFFC20)  returns 0x00 (0000ms, 0818ms total)
